T2CE4 7467:582 SEGGER J-Link V6.18a Log File (0007ms, 58267ms total)
T2CE4 7467:582 DLL Compiled: Aug 11 2017 17:53:19 (0007ms, 58267ms total)
T2CE4 7467:582 Logging started @ 2018-03-01 19:17 (0007ms, 58267ms total)
T2CE4 7467:604 JLINK_ExecCommand("Device = AT91SAM4S8B", ...).   returns 0x00 (0002ms, 58269ms total)
T2CE4 7467:834 JLINK_ExecCommand("ProjectFile = D:\Git\Firmware\WebcamFirmware\WebcamFirmware\jlink.config", ...).   returns 0x00 (0003ms, 58272ms total)
T2CE4 7467:854 JLINK_ExecCommand("Device = AT91SAM4S8B", ...).   returns 0x00 (0004ms, 58276ms total)
T2CE4 7467:858 JLINK_TIF_Select(JLINKARM_TIF_SWD)  returns 0x00 (0000ms, 58276ms total)
T2CE4 7467:858 JLINK_SetSpeed(4000) (0000ms, 58276ms total)
T2CE4 7467:858 JLINK_ResetPullsRESET(OFF) (0000ms, 58276ms total)
T2CE4 7467:858 JLINK_Connect() >0x10B TIF>Found SW-DP with ID 0x2BA01477 >0x0D TIF> >0x28 TIF> >0x0D TIF> >0x28 TIF> >0x0D TIF> >0x28 TIF> >0x0D TIF> >0x28 TIF> >0x0D TIF> >0x21 TIF> >0x0D TIF> >0x28 TIF>AP map detection skipped. User manually configured AP map.AP[0]: AHB-AP (IDR: Not set) >0x42 TIF> >0x28 TIF> >0x0D TIF> >0x21 TIF> >0x0D TIF> >0x21 TIF> >0x42 TIF> >0x28 TIF> >0x0D TIF> >0x28 TIF> >0x0D TIF> >0x28 TIF> >0x0D TIF> >0x21 TIF> >0x0D TIF> >0x21 TIF>AP[0]: Core found
AP[0]: AHB-AP ROM base: 0xE00FF000 >0x0D TIF> >0x28 TIF> >0x0D TIF> >0x28 TIF> >0x0D TIF> >0x28 TIF> >0x0D TIF> >0x21 TIF> >0x0D TIF> >0x21 TIF>CPUID register: 0x410FC241. Implementer code: 0x41 (ARM)Found Cortex-M4 r0p1, Little endian. -- CPU_ReadMem(4 bytes @ 0xE000EDF0) -- CPU_ReadMem(4 bytes @ 0xE0002000) -- CPU_ReadMem(4 bytes @ 0xE000EDFC) -- CPU_ReadMem(4 bytes @ 0xE0001000) -- CPU_WriteMem(4 bytes @ 0xE0001000) -- CPU_ReadMem(4 bytes @ 0xE000ED88) -- CPU_WriteMem(4 bytes @ 0xE000ED88)
 -- CPU_ReadMem(4 bytes @ 0xE000ED88) -- CPU_WriteMem(4 bytes @ 0xE000ED88)CoreSight components:ROMTbl[0] @ E00FF000 -- CPU_ReadMem(16 bytes @ 0xE00FF000) -- CPU_ReadMem(16 bytes @ 0xE000EFF0) -- CPU_ReadMem(16 bytes @ 0xE000EFE0)ROMTbl[0][0]: E000E000, CID: B105E00D, PID: 000BB000 SCS -- CPU_ReadMem(16 bytes @ 0xE0001FF0) -- CPU_ReadMem(16 bytes @ 0xE0001FE0)ROMTbl[0][1]: E0001000, CID: B105E00D, PID: 003BB002 DWT -- CPU_ReadMem(16 bytes @ 0xE0002FF0) -- CPU_ReadMem(16 bytes @ 0xE0002FE0)
ROMTbl[0][2]: E0002000, CID: B105E00D, PID: 002BB003 FPB -- CPU_ReadMem(16 bytes @ 0xE0000FF0) -- CPU_ReadMem(16 bytes @ 0xE0000FE0)ROMTbl[0][3]: E0000000, CID: B105E00D, PID: 003BB001 ITM -- CPU_ReadMem(16 bytes @ 0xE00FF010) -- CPU_ReadMem(16 bytes @ 0xE0040FF0) -- CPU_ReadMem(16 bytes @ 0xE0040FE0)ROMTbl[0][4]: E0040000, CID: B105900D, PID: 000BB9A1 TPIU  returns 0x00 (0135ms, 58411ms total)
T2CE4 7467:993 JLINK_Halt()  returns 0x00 (0003ms, 58414ms total)
T2CE4 7467:996 JLINK_WriteMem(0x400E0A04, 0x0004 Bytes, ...) - Data: 0B 01 00 5A -- CPU_WriteMem(4 bytes @ 0x400E0A04)  returns 0x04 (0001ms, 58415ms total)
T2CE4 7467:997 JLINK_ReadMem (0x400E0A08, 0x0004 Bytes, ...) -- CPU_ReadMem(4 bytes @ 0x400E0A08) - Data: 01 00 00 00  returns 0x00 (0001ms, 58416ms total)
T2CE4 7467:998 JLINK_SetResetType(JLINKARM_CM3_RESET_TYPE_NORMAL)  returns JLINKARM_CM3_RESET_TYPE_NORMAL (0000ms, 58416ms total)
T2CE4 7467:998 JLINK_Reset() -- CPU_ReadMem(16 bytes @ 0x20000000) -- CPU_WriteMem(16 bytes @ 0x20000000) -- CPU_ReadMem(4 bytes @ 0xE000EDFC) -- CPU_WriteMem(4 bytes @ 0xE000EDFC) -- CPU_ReadMem(4 bytes @ 0xE0001000) -- CPU_WriteMem(4 bytes @ 0xE000EDFC) -- CPU_WriteMem(16 bytes @ 0x20000000) -- CPU_WriteMem(4 bytes @ 0xE0002000) -- CPU_ReadMem(4 bytes @ 0xE000EDFC) -- CPU_ReadMem(4 bytes @ 0xE0001000) (0025ms, 58441ms total)
T2CE4 7468:025 JLINK_JTAG_GetDeviceID(DeviceIndex = 0)  returns 0x00 (0000ms, 58442ms total)
T2CE4 7468:025 JLINK_ReadMemU32(0x400E0740, 0x0001 Items, ...) -- CPU_ReadMem(4 bytes @ 0x400E0740) - Data: E0 0A 9C 28  returns 0x01 (0001ms, 58443ms total)
T2CE4 7468:026 JLINK_ReadMemU32(0x400E0744, 0x0001 Items, ...) -- CPU_ReadMem(4 bytes @ 0x400E0744) - Data: 00 00 00 00  returns 0x01 (0001ms, 58444ms total)
T2CE4 7468:027 JLINK_WriteMem(0x400E0A04, 0x0004 Bytes, ...) - Data: 05 00 00 5A -- CPU_WriteMem(4 bytes @ 0x400E0A04)  returns 0x04 (0001ms, 58445ms total)
T2CE4 7468:028 JLINK_ReadMem (0x400E0A08, 0x0004 Bytes, ...) -- CPU_ReadMem(4 bytes @ 0x400E0A08) - Data: 00 00 00 00  returns 0x00 (0000ms, 58445ms total)
T2CE4 7468:031 JLINK_ReadMem (0x400E0A08, 0x0004 Bytes, ...) -- CPU_ReadMem(4 bytes @ 0x400E0A08) - Data: 00 00 00 00  returns 0x00 (0000ms, 58445ms total)
T2CE4 7468:037 JLINK_ReadMem (0x400E0A08, 0x0004 Bytes, ...) -- CPU_ReadMem(4 bytes @ 0x400E0A08) - Data: 00 00 00 00  returns 0x00 (0000ms, 58445ms total)
T054C 7468:037 JLINK_IsHalted()  returns TRUE (0000ms, 58445ms total)
T054C 7468:037 JLINK_GetMOEs(...) -- CPU_ReadMem(4 bytes @ 0xE000ED30)  returns 0x01 (0001ms, 58446ms total)
T054C 7468:038 JLINK_ReadReg(R15 (PC))  returns 0x00402A44 (0000ms, 58446ms total)
T2CE4 7468:053 JLINK_ReadMem (0x400E0A08, 0x0004 Bytes, ...) -- CPU_ReadMem(4 bytes @ 0x400E0A08) - Data: 00 00 00 00  returns 0x00 (0000ms, 58446ms total)
T2CE4 7468:118 JLINK_ReadMem (0x400E0A08, 0x0004 Bytes, ...) -- CPU_ReadMem(4 bytes @ 0x400E0A08) - Data: 00 00 00 00  returns 0x00 (0001ms, 58447ms total)
T054C 7468:239 JLINK_IsHalted()  returns TRUE (0000ms, 58447ms total)
T2CE4 7468:375 JLINK_ReadMem (0x400E0A08, 0x0004 Bytes, ...) -- CPU_ReadMem(4 bytes @ 0x400E0A08) - Data: 00 00 00 00  returns 0x00 (0001ms, 58448ms total)
T054C 7468:440 JLINK_IsHalted()  returns TRUE (0000ms, 58448ms total)
T054C 7468:642 JLINK_IsHalted()  returns TRUE (0001ms, 58449ms total)
T054C 7468:846 JLINK_IsHalted()  returns TRUE (0000ms, 58448ms total)
T054C 7469:047 JLINK_IsHalted()  returns TRUE (0000ms, 58448ms total)
T054C 7469:247 JLINK_IsHalted()  returns TRUE (0000ms, 58448ms total)
T2CE4 7469:377 JLINK_ReadMem (0x400E0A08, 0x0004 Bytes, ...) -- CPU_ReadMem(4 bytes @ 0x400E0A08) - Data: 00 00 00 00  returns 0x00 (0000ms, 58448ms total)
T2CE4 7469:377 JLINK_ReadMem (0x400E0A08, 0x0004 Bytes, ...) -- CPU_ReadMem(4 bytes @ 0x400E0A08) - Data: 00 00 00 00  returns 0x00 (0002ms, 58450ms total)
T2CE4 7469:381 JLINK_ReadMem (0x400E0A08, 0x0004 Bytes, ...) -- CPU_ReadMem(4 bytes @ 0x400E0A08) - Data: 00 00 00 00  returns 0x00 (0001ms, 58451ms total)
T2CE4 7469:386 JLINK_ReadMem (0x400E0A08, 0x0004 Bytes, ...) -- CPU_ReadMem(4 bytes @ 0x400E0A08) - Data: 00 00 00 00  returns 0x00 (0001ms, 58452ms total)
T2CE4 7469:405 JLINK_ReadMem (0x400E0A08, 0x0004 Bytes, ...) -- CPU_ReadMem(4 bytes @ 0x400E0A08) - Data: 00 00 00 00  returns 0x00 (0001ms, 58453ms total)
T054C 7469:449 JLINK_IsHalted()  returns TRUE (0000ms, 58453ms total)
T2CE4 7469:471 JLINK_ReadMem (0x400E0A08, 0x0004 Bytes, ...) -- CPU_ReadMem(4 bytes @ 0x400E0A08) - Data: 00 00 00 00  returns 0x00 (0001ms, 58454ms total)
T054C 7469:650 JLINK_IsHalted()  returns TRUE (0000ms, 58454ms total)
T2CE4 7469:728 JLINK_ReadMem (0x400E0A08, 0x0004 Bytes, ...) -- CPU_ReadMem(4 bytes @ 0x400E0A08) - Data: 00 00 00 00  returns 0x00 (0001ms, 58455ms total)
T054C 7469:851 JLINK_IsHalted()  returns TRUE (0000ms, 58455ms total)
T054C 7470:052 JLINK_IsHalted()  returns TRUE (0000ms, 58455ms total)
T054C 7470:252 JLINK_IsHalted()  returns TRUE (0000ms, 58455ms total)
T054C 7470:452 JLINK_IsHalted()  returns TRUE (0001ms, 58456ms total)
T054C 7470:654 JLINK_IsHalted()  returns TRUE (0000ms, 58455ms total)
T2CE4 7470:729 JLINK_ReadMem (0x400E0A08, 0x0004 Bytes, ...) -- CPU_ReadMem(4 bytes @ 0x400E0A08) - Data: 00 00 00 00  returns 0x00 (0001ms, 58456ms total)
T2CE4 7470:730 JLINK_ReadMem (0x400E0A08, 0x0004 Bytes, ...) -- CPU_ReadMem(4 bytes @ 0x400E0A08) - Data: 00 00 00 00  returns 0x00 (0001ms, 58457ms total)
T2CE4 7470:732 JLINK_ReadMem (0x400E0A08, 0x0004 Bytes, ...) -- CPU_ReadMem(4 bytes @ 0x400E0A08) - Data: 00 00 00 00  returns 0x00 (0001ms, 58458ms total)
T2CE4 7470:737 JLINK_ReadMem (0x400E0A08, 0x0004 Bytes, ...) -- CPU_ReadMem(4 bytes @ 0x400E0A08) - Data: 00 00 00 00  returns 0x00 (0001ms, 58459ms total)
T2CE4 7470:757 JLINK_ReadMem (0x400E0A08, 0x0004 Bytes, ...) -- CPU_ReadMem(4 bytes @ 0x400E0A08) - Data: 00 00 00 00  returns 0x00 (0000ms, 58459ms total)
T2CE4 7470:823 JLINK_ReadMem (0x400E0A08, 0x0004 Bytes, ...) -- CPU_ReadMem(4 bytes @ 0x400E0A08) - Data: 00 00 00 00  returns 0x00 (0000ms, 58459ms total)
T054C 7470:854 JLINK_IsHalted()  returns TRUE (0000ms, 58459ms total)
T054C 7471:056 JLINK_IsHalted()  returns TRUE (0000ms, 58459ms total)
T2CE4 7471:081 JLINK_ReadMem (0x400E0A08, 0x0004 Bytes, ...) -- CPU_ReadMem(4 bytes @ 0x400E0A08) - Data: 00 00 00 00  returns 0x00 (0001ms, 58460ms total)
T054C 7471:259 JLINK_IsHalted()  returns TRUE (0000ms, 58460ms total)
T054C 7471:459 JLINK_IsHalted()  returns TRUE (0000ms, 58460ms total)
T054C 7471:661 JLINK_IsHalted()  returns TRUE (0001ms, 58461ms total)
T054C 7471:863 JLINK_IsHalted()  returns TRUE (0000ms, 58460ms total)
T054C 7472:064 JLINK_IsHalted()  returns TRUE (0000ms, 58460ms total)
T2CE4 7472:083 JLINK_ReadMem (0x400E0A08, 0x0004 Bytes, ...) -- CPU_ReadMem(4 bytes @ 0x400E0A08) - Data: 00 00 00 00  returns 0x00 (0001ms, 58461ms total)
T2CE4 7472:084 JLINK_ReadMem (0x400E0A08, 0x0004 Bytes, ...) -- CPU_ReadMem(4 bytes @ 0x400E0A08) - Data: 00 00 00 00  returns 0x00 (0002ms, 58463ms total)
T2CE4 7472:088 JLINK_ReadMem (0x400E0A08, 0x0004 Bytes, ...) -- CPU_ReadMem(4 bytes @ 0x400E0A08) - Data: 00 00 00 00  returns 0x00 (0001ms, 58464ms total)
T2CE4 7472:094 JLINK_ReadMem (0x400E0A08, 0x0004 Bytes, ...) -- CPU_ReadMem(4 bytes @ 0x400E0A08) - Data: 00 00 00 00  returns 0x00 (0001ms, 58465ms total)
T2CE4 7472:112 JLINK_ReadMem (0x400E0A08, 0x0004 Bytes, ...) -- CPU_ReadMem(4 bytes @ 0x400E0A08) - Data: 00 00 00 00  returns 0x00 (0001ms, 58466ms total)
T2CE4 7472:179 JLINK_ReadMem (0x400E0A08, 0x0004 Bytes, ...) -- CPU_ReadMem(4 bytes @ 0x400E0A08) - Data: 00 00 00 00  returns 0x00 (0001ms, 58467ms total)
T054C 7472:266 JLINK_IsHalted()  returns TRUE (0001ms, 58468ms total)
T2CE4 7472:437 JLINK_ReadMem (0x400E0A08, 0x0004 Bytes, ...) -- CPU_ReadMem(4 bytes @ 0x400E0A08) - Data: 01 00 00 00  returns 0x00 (0001ms, 58468ms total)
T054C 7472:470 JLINK_IsHalted()  returns TRUE (0000ms, 58468ms total)
T2CE4 7472:471 JLINK_ResetPullsRESET(ON) (0000ms, 58468ms total)
T2CE4 7472:471 JLINK_ResetNoHalt() >0x10B TIF>Found SW-DP with ID 0x2BA01477 >0x0D TIF> >0x28 TIF> >0x0D TIF> >0x28 TIF> >0x0D TIF> >0x28 TIF> >0x0D TIF> >0x28 TIF> >0x0D TIF> >0x21 TIF> >0x0D TIF> >0x28 TIF>AP map detection skipped. User manually configured AP map.AP[0]: AHB-AP (IDR: Not set) >0x42 TIF> >0x28 TIF> >0x0D TIF> >0x21 TIF> >0x0D TIF> >0x21 TIF> >0x42 TIF> >0x28 TIF> >0x0D TIF> >0x28 TIF> >0x0D TIF> >0x28 TIF> >0x0D TIF> >0x21 TIF> >0x0D TIF> >0x21 TIF>AP[0]: Core found
AP[0]: AHB-AP ROM base: 0xE00FF000 >0x0D TIF> >0x28 TIF> >0x0D TIF> >0x28 TIF> >0x0D TIF> >0x28 TIF> >0x0D TIF> >0x21 TIF> >0x0D TIF> >0x21 TIF>CPUID register: 0x410FC241. Implementer code: 0x41 (ARM)Found Cortex-M4 r0p1, Little endian. -- CPU_ReadMem(4 bytes @ 0xE000EDF0) -- CPU_ReadMem(4 bytes @ 0xE0002000) -- CPU_ReadMem(4 bytes @ 0xE000EDFC) -- CPU_ReadMem(4 bytes @ 0xE0001000) -- CPU_ReadMem(4 bytes @ 0xE000ED88) -- CPU_WriteMem(4 bytes @ 0xE000ED88) -- CPU_ReadMem(4 bytes @ 0xE000ED88)
 -- CPU_WriteMem(4 bytes @ 0xE000ED88)CoreSight components:ROMTbl[0] @ E00FF000 -- CPU_ReadMem(16 bytes @ 0xE00FF000) -- CPU_ReadMem(16 bytes @ 0xE000EFF0) -- CPU_ReadMem(16 bytes @ 0xE000EFE0)ROMTbl[0][0]: E000E000, CID: B105E00D, PID: 000BB000 SCS -- CPU_WriteMem(4 bytes @ 0xE0001000) -- CPU_ReadMem(16 bytes @ 0xE0001FF0) -- CPU_ReadMem(16 bytes @ 0xE0001FE0)ROMTbl[0][1]: E0001000, CID: B105E00D, PID: 003BB002 DWT -- CPU_ReadMem(16 bytes @ 0xE0002FF0) -- CPU_ReadMem(16 bytes @ 0xE0002FE0)
ROMTbl[0][2]: E0002000, CID: B105E00D, PID: 002BB003 FPB -- CPU_ReadMem(16 bytes @ 0xE0000FF0) -- CPU_ReadMem(16 bytes @ 0xE0000FE0)ROMTbl[0][3]: E0000000, CID: B105E00D, PID: 003BB001 ITM -- CPU_ReadMem(16 bytes @ 0xE00FF010) -- CPU_ReadMem(16 bytes @ 0xE0040FF0) -- CPU_ReadMem(16 bytes @ 0xE0040FE0)ROMTbl[0][4]: E0040000, CID: B105900D, PID: 000BB9A1 TPIU
                JLINK_Reset() -- CPU_ReadMem(16 bytes @ 0x20000000) -- CPU_WriteMem(16 bytes @ 0x20000000) -- CPU_ReadMem(4 bytes @ 0xE000EDFC) -- CPU_WriteMem(4 bytes @ 0xE000EDFC) -- CPU_ReadMem(4 bytes @ 0xE0001000) -- CPU_WriteMem(4 bytes @ 0xE0001004) -- CPU_WriteMem(4 bytes @ 0xE000EDFC) -- CPU_WriteMem(16 bytes @ 0x20000000) -- CPU_WriteMem(4 bytes @ 0xE0002000) -- CPU_ReadMem(4 bytes @ 0xE000EDFC) -- CPU_ReadMem(4 bytes @ 0xE0001000) (0030ms, 0030ms total)
                JLINK_Go() -- CPU_ReadMem(4 bytes @ 0xE0001000) -- CPU_WriteMem(4 bytes @ 0xE0002008) -- CPU_WriteMem(4 bytes @ 0xE000200C) -- CPU_WriteMem(4 bytes @ 0xE0002010) -- CPU_WriteMem(4 bytes @ 0xE0002014) -- CPU_WriteMem(4 bytes @ 0xE0002018) -- CPU_WriteMem(4 bytes @ 0xE000201C) -- CPU_WriteMem(4 bytes @ 0xE0001004) (0005ms, 0035ms total)
               (0180ms, 58648ms total)
T2CE4 7472:651 JLINK_ExecCommand("ProjectFile = D:\Git\Firmware\WebcamFirmware\WebcamFirmware\jlink.config", ...).   returns 0x00 (0002ms, 58650ms total)
T2CE4 7472:673 JLINK_ExecCommand("Device = AT91SAM4S8B", ...).   returns 0x00 (0002ms, 58652ms total)
T2CE4 7472:675 JLINK_TIF_Select(JLINKARM_TIF_SWD)  returns 0x00 (0000ms, 58652ms total)
T2CE4 7472:675 JLINK_SetSpeed(4000) (0000ms, 58652ms total)
T2CE4 7472:675 JLINK_ResetPullsRESET(OFF) (0000ms, 58652ms total)
T2CE4 7472:675 JLINK_Connect() >0x10B TIF>Found SW-DP with ID 0x2BA01477 >0x0D TIF> >0x28 TIF> >0x0D TIF> >0x28 TIF> >0x0D TIF> >0x28 TIF> >0x0D TIF> >0x28 TIF> >0x0D TIF> >0x21 TIF> >0x0D TIF> >0x28 TIF>AP map detection skipped. User manually configured AP map.AP[0]: AHB-AP (IDR: Not set) >0x42 TIF> >0x28 TIF> >0x0D TIF> >0x21 TIF> >0x0D TIF> >0x21 TIF> >0x42 TIF> >0x28 TIF> >0x0D TIF> >0x28 TIF> >0x0D TIF> >0x28 TIF> >0x0D TIF> >0x21 TIF> >0x0D TIF> >0x21 TIF>AP[0]: Core found
AP[0]: AHB-AP ROM base: 0xE00FF000 >0x0D TIF> >0x28 TIF> >0x0D TIF> >0x28 TIF> >0x0D TIF> >0x28 TIF> >0x0D TIF> >0x21 TIF> >0x0D TIF> >0x21 TIF>CPUID register: 0x410FC241. Implementer code: 0x41 (ARM)Found Cortex-M4 r0p1, Little endian. -- CPU_ReadMem(4 bytes @ 0xE000EDF0) -- CPU_ReadMem(4 bytes @ 0xE0002000) -- CPU_ReadMem(4 bytes @ 0xE000EDFC) -- CPU_ReadMem(4 bytes @ 0xE0001000) -- CPU_WriteMem(4 bytes @ 0xE0001000) -- CPU_ReadMem(4 bytes @ 0xE000ED88) -- CPU_WriteMem(4 bytes @ 0xE000ED88)
 -- CPU_ReadMem(4 bytes @ 0xE000ED88) -- CPU_WriteMem(4 bytes @ 0xE000ED88)CoreSight components:ROMTbl[0] @ E00FF000 -- CPU_ReadMem(16 bytes @ 0xE00FF000) -- CPU_ReadMem(16 bytes @ 0xE000EFF0) -- CPU_ReadMem(16 bytes @ 0xE000EFE0)ROMTbl[0][0]: E000E000, CID: B105E00D, PID: 000BB000 SCS -- CPU_ReadMem(16 bytes @ 0xE0001FF0) -- CPU_ReadMem(16 bytes @ 0xE0001FE0)ROMTbl[0][1]: E0001000, CID: B105E00D, PID: 003BB002 DWT -- CPU_ReadMem(16 bytes @ 0xE0002FF0) -- CPU_ReadMem(16 bytes @ 0xE0002FE0)
ROMTbl[0][2]: E0002000, CID: B105E00D, PID: 002BB003 FPB -- CPU_ReadMem(16 bytes @ 0xE0000FF0) -- CPU_ReadMem(16 bytes @ 0xE0000FE0)ROMTbl[0][3]: E0000000, CID: B105E00D, PID: 003BB001 ITM -- CPU_ReadMem(16 bytes @ 0xE00FF010) -- CPU_ReadMem(16 bytes @ 0xE0040FF0) -- CPU_ReadMem(16 bytes @ 0xE0040FE0)ROMTbl[0][4]: E0040000, CID: B105900D, PID: 000BB9A1 TPIU  returns 0x00 (0140ms, 58792ms total)
T2CE4 7472:815 JLINK_Halt()  returns 0x00 (0004ms, 58796ms total)
T2CE4 7472:819 JLINK_WriteMem(0x400E0A04, 0x0004 Bytes, ...) - Data: 0B 01 00 5A -- CPU_WriteMem(4 bytes @ 0x400E0A04)  returns 0x04 (0001ms, 58797ms total)
T2CE4 7472:820 JLINK_ReadMem (0x400E0A08, 0x0004 Bytes, ...) -- CPU_ReadMem(4 bytes @ 0x400E0A08) - Data: 01 00 00 00  returns 0x00 (0001ms, 58798ms total)
T2CE4 7472:821 JLINK_SetResetType(JLINKARM_CM3_RESET_TYPE_NORMAL)  returns JLINKARM_CM3_RESET_TYPE_NORMAL (0000ms, 58798ms total)
T2CE4 7472:821 JLINK_Reset() -- CPU_ReadMem(16 bytes @ 0x20000000) -- CPU_WriteMem(16 bytes @ 0x20000000) -- CPU_ReadMem(4 bytes @ 0xE000EDFC) -- CPU_WriteMem(4 bytes @ 0xE000EDFC) -- CPU_ReadMem(4 bytes @ 0xE0001000) -- CPU_WriteMem(4 bytes @ 0xE000EDFC) -- CPU_WriteMem(16 bytes @ 0x20000000) -- CPU_WriteMem(4 bytes @ 0xE0002000) -- CPU_ReadMem(4 bytes @ 0xE000EDFC) -- CPU_ReadMem(4 bytes @ 0xE0001000) (0030ms, 58828ms total)
T2CE4 7472:855 JLINK_JTAG_GetDeviceID(DeviceIndex = 0)  returns 0x00 (0000ms, 58828ms total)
T2CE4 7472:855 JLINK_ReadMemU32(0x400E0740, 0x0001 Items, ...) -- CPU_ReadMem(4 bytes @ 0x400E0740) - Data: E0 0A 9C 28  returns 0x01 (0001ms, 58829ms total)
T2CE4 7472:856 JLINK_ReadMemU32(0x400E0744, 0x0001 Items, ...) -- CPU_ReadMem(4 bytes @ 0x400E0744) - Data: 00 00 00 00  returns 0x01 (0000ms, 58829ms total)
T13F0 7472:862 JLINK_IsHalted()  returns TRUE (0000ms, 58829ms total)
T13F0 7472:862 JLINK_GetMOEs(...) -- CPU_ReadMem(4 bytes @ 0xE000ED30)  returns 0x01 (0000ms, 58829ms total)
T13F0 7472:862 JLINK_ReadReg(R15 (PC))  returns 0xFFFFFFFE (0000ms, 58829ms total)
T2CE4 7472:878 JLINK_BeginDownload(Flags = 0x00) (0000ms, 58829ms total)
T2CE4 7472:878 JLINK_WriteMem(0x00400000, 0x4000 Bytes, ...) - Data: 68 C5 01 20 45 2A 40 00 0D 2B 40 00 0D 2B 40 00 ...  returns 0x4000 (0000ms, 58829ms total)
T2CE4 7472:878 JLINK_WriteMem(0x00404000, 0x502C Bytes, ...) - Data: B6 E5 4B F0 01 0B 9A F8 00 30 B1 E5 0F 9C 23 68 ...  returns 0x502C (0000ms, 58829ms total)
T2CE4 7472:879 JLINK_WriteMem(0x0040902C, 0x0008 Bytes, ...) - Data: B4 A1 FF 7F 01 00 00 00  returns 0x08 (0000ms, 58829ms total)
T2CE4 7472:879 JLINK_WriteMem(0x00409034, 0x09C0 Bytes, ...) - Data: BF F3 5F 8F 01 38 FB D1 70 47 40 9C 00 09 3D 00 ...  returns 0x9C0 (0000ms, 58829ms total)
T2CE4 7472:886 JLINK_EndDownload() -- CPU_ReadMem(4 bytes @ 0xE000ED90) -- CPU_ReadMem(4 bytes @ 0xE000ED94) -- -------------------------------------- -- Start of determining dirty areas in flash cache -- End of determining dirty areas -- Start of preparing flash programming -- Calculating RAM usage -- RAM usage = 3924 Bytes -- Preserving CPU registers -- Preparing memory -- Preparing target -- Preserving target RAM temporarily used for programming -- Downloading RAMCode -- Checking target RAM
 -- Preparing RAMCode -- End of preparing flash programming -- CPU is running at 90000 kHz. -- Start of comparing flash -- CRC check was estimated as fastest method -- Comparing range 0x400000 - 0x403FFF (32 Sectors, 16 KB), using multi-block CRC calculation -- CRC does not match for sectors 0-31 -- Comparing range 0x404000 - 0x409FFF (6 Sectors, 24 KB), using multi-block CRC calculation -- CRC does not match for sectors 0-5 -- End of comparing flash -- Start of erasing sectors -- End of erasing sectors
 -- Start of flash programming -- Programming range 0x00400000 - 0x00403FFF (032 Sectors, 16 KB) -- Programming range 0x00404000 - 0x00409FFF (006 Sectors, 24 KB) -- End of flash programming -- 0x400000 - 0x403FFF (032 Sectors, 16 KB) -- 0x404000 - 0x409FFF (006 Sectors, 24 KB) -- Start of verifying flash -- Checksum calculation was estimated as fastest method -- Checksum is not supported by this flash bank. Switched to CRC method. -- Checksum calculation was estimated as fastest method
 -- Checksum is not supported by this flash bank. Switched to CRC method. -- End of verifying flash -- Start of restoring -- Restoring RAMCode -- Restoring target memory -- Restore target -- Restore memory -- Restoring CPU registers -- End of restoring -- Bank 0 @ 0x00400000: 2 ranges affected (40960 bytes) -- Total time needed: 0.621s (Prepare: 0.238s, Compare: 0.010s, Erase: 0.000s, Program: 0.289s, Verify: 0.003s, Restore: 0.079s)  returns 0xA000 (0629ms, 59458ms total)
T13F0 7473:516 JLINK_IsHalted()  returns TRUE (0000ms, 59458ms total)
T13F0 7473:718 JLINK_IsHalted()  returns TRUE (0000ms, 59458ms total)
T3E10 7473:858 JLINK_Halt()  returns 0x00 (0001ms, 59459ms total)
T3E10 7473:859 JLINK_ReadReg(R15 (PC))  returns 0xFFFFFFFE (0000ms, 59459ms total)
T3E10 7473:859 JLINK_ReadReg(R13 (SP))  returns 0xFFFFFFFC (0000ms, 59459ms total)
T3E10 7473:909 JLINK_ReadReg(R0)  returns 0x400E1400 (0000ms, 59459ms total)
T3E10 7473:909 JLINK_ReadReg(R1)  returns 0x40C00000 (0000ms, 59459ms total)
T3E10 7473:909 JLINK_ReadReg(R2)  returns 0xA5000005 (0000ms, 59459ms total)
T3E10 7473:909 JLINK_ReadReg(R3)  returns 0x00000000 (0000ms, 59459ms total)
T3E10 7473:909 JLINK_ReadReg(R4)  returns 0x004012C1 (0000ms, 59459ms total)
T3E10 7473:909 JLINK_ReadReg(R5)  returns 0xF08EE6AF (0000ms, 59459ms total)
T3E10 7473:909 JLINK_ReadReg(R6)  returns 0x0000001B (0000ms, 59459ms total)
T3E10 7473:909 JLINK_ReadReg(R7)  returns 0x2001C420 (0000ms, 59459ms total)
T3E10 7473:909 JLINK_ReadReg(R8)  returns 0x76EAC800 (0000ms, 59459ms total)
T3E10 7473:909 JLINK_ReadReg(R9)  returns 0x00000003 (0000ms, 59459ms total)
T3E10 7473:909 JLINK_ReadReg(R10)  returns 0xE4E1C000 (0000ms, 59459ms total)
T3E10 7473:910 JLINK_ReadReg(R11)  returns 0x00000000 (0000ms, 59460ms total)
T3E10 7473:910 JLINK_ReadReg(R12)  returns 0x0000ACBB (0000ms, 59460ms total)
T3E10 7473:910 JLINK_ReadReg(R13 (SP))  returns 0xFFFFFFFC (0000ms, 59460ms total)
T3E10 7473:910 JLINK_ReadReg(R14)  returns 0xFFFFFFFF (0000ms, 59460ms total)
T3E10 7473:910 JLINK_ReadReg(R15 (PC))  returns 0xFFFFFFFE (0000ms, 59460ms total)
T3E10 7473:910 JLINK_ReadReg(XPSR)  returns 0x01000000 (0000ms, 59460ms total)
T3E10 7473:910 JLINK_ReadReg(MSP)  returns 0xFFFFFFFC (0000ms, 59460ms total)
T3E10 7473:910 JLINK_ReadReg(PSP)  returns 0xCC460208 (0000ms, 59460ms total)
T3E10 7473:910 JLINK_ReadReg(PRIMASK)  returns 0x00000000 (0000ms, 59460ms total)
T3E10 7473:910 JLINK_ReadReg(BASEPRI)  returns 0x00000000 (0000ms, 59460ms total)
T3E10 7473:910 JLINK_ReadReg(FAULTMASK)  returns 0x00000000 (0000ms, 59460ms total)
T3E10 7473:910 JLINK_ReadReg(CONTROL)  returns 0x00000000 (0000ms, 59460ms total)
T13F0 7473:921 JLINK_IsHalted()  returns TRUE (0000ms, 59460ms total)
T3E10 7473:975 JLINK_ReadMemHW(0x0040061C, 0x0002 Bytes, ...) -- CPU_ReadMem(2 bytes @ 0x0040061C) - Data: 41 4B  returns 0x00 (0001ms, 59461ms total)
T3E10 7473:976 JLINK_ReadMemHW(0x00400724, 0x0004 Bytes, ...) -- CPU_ReadMem(4 bytes @ 0x00400724) - Data: D9 04 40 00  returns 0x00 (0001ms, 59462ms total)
T3E10 7473:978 JLINK_ReadMemHW(0x00400682, 0x0002 Bytes, ...) -- CPU_ReadMem(2 bytes @ 0x00400682) - Data: 00 BF  returns 0x00 (0001ms, 59463ms total)
T2CE4 7473:999 JLINK_GetNumBPUnits(Type = 0xFFFFFF02)  returns 0x06 (0000ms, 59463ms total)
T2CE4 7473:999 JLINK_SetBPEx(Addr = 0x00400682, Type = 0xFFFFFFF2)  returns 0x0000007E (0000ms, 59463ms total)
T2CE4 7473:999 JLINK_GetBPInfo(BPHandle = 126)  returns 0x00 (0000ms, 59463ms total)
T3E10 7474:014 JLINK_SetResetType(JLINKARM_CM3_RESET_TYPE_NORMAL)  returns JLINKARM_CM3_RESET_TYPE_NORMAL (0000ms, 59463ms total)
T3E10 7474:015 JLINK_Reset() -- CPU_ReadMem(16 bytes @ 0x20000000) -- CPU_WriteMem(16 bytes @ 0x20000000) -- CPU_ReadMem(4 bytes @ 0xE000EDFC) -- CPU_WriteMem(4 bytes @ 0xE000EDFC) -- CPU_ReadMem(4 bytes @ 0xE0001000) -- CPU_WriteMem(4 bytes @ 0xE000EDFC) -- CPU_WriteMem(16 bytes @ 0x20000000) -- CPU_WriteMem(4 bytes @ 0xE0002000) -- CPU_ReadMem(4 bytes @ 0xE000EDFC) -- CPU_ReadMem(4 bytes @ 0xE0001000) (0030ms, 59493ms total)
T13F0 7474:045 JLINK_IsHalted()  returns TRUE (0000ms, 59493ms total)
T13F0 7474:045 JLINK_GetMOEs(...) -- CPU_ReadMem(4 bytes @ 0xE000ED30)  returns 0x01 (0000ms, 59493ms total)
T13F0 7474:045 JLINK_ReadReg(R15 (PC))  returns 0x00402A44 (0001ms, 59494ms total)
T3E10 7474:056 JLINK_ReadReg(R15 (PC))  returns 0x00402A44 (0000ms, 59494ms total)
T3E10 7474:056 JLINK_ReadReg(R13 (SP))  returns 0x2001C568 (0000ms, 59494ms total)
T3E10 7474:077 JLINK_ReadMemHW(0x00402A44, 0x0004 Bytes, ...) -- CPU_ReadMem(4 bytes @ 0x00402A44) - Data: 80 B5 84 B0  returns 0x00 (0001ms, 59495ms total)
T3E10 7474:115 JLINK_ReadMemHW(0x00402EF4, 0x0001 Bytes, ...) -- CPU_ReadMem(1 bytes @ 0x00402EF4) - Data: 2D  returns 0x00 (0001ms, 59496ms total)
T3E10 7474:173 JLINK_ReadReg(R15 (PC))  returns 0x00402A44 (0000ms, 59496ms total)
T3E10 7474:173 JLINK_SetBPEx(Addr = 0x00402EF4, Type = 0xFFFFFFF2)  returns 0x0000007F (0000ms, 59496ms total)
T3E10 7474:173 JLINK_GetBPInfo(BPHandle = 127)  returns 0x00 (0000ms, 59496ms total)
T3E10 7474:173 JLINK_Go() -- CPU_WriteMem(4 bytes @ 0xE0002000) -- CPU_WriteMem(4 bytes @ 0xE0002000) -- CPU_ReadMem(4 bytes @ 0xE0001000) -- CPU_WriteMem(4 bytes @ 0xE000ED30) -- CPU_WriteMem(4 bytes @ 0xE0002008) -- CPU_WriteMem(4 bytes @ 0xE000200C) -- CPU_WriteMem(4 bytes @ 0xE0002010) -- CPU_WriteMem(4 bytes @ 0xE0002014) -- CPU_WriteMem(4 bytes @ 0xE0002018) -- CPU_WriteMem(4 bytes @ 0xE000201C) -- CPU_WriteMem(4 bytes @ 0xE0001004) (0008ms, 59504ms total)
T13F0 7474:181 JLINK_IsHalted()  returns FALSE (0001ms, 59505ms total)
T13F0 7474:202 JLINK_IsHalted()  returns FALSE (0001ms, 59505ms total)
T13F0 7474:284 JLINK_IsHalted()  returns TRUE (0004ms, 59508ms total)
T13F0 7474:288 JLINK_GetMOEs(...) -- CPU_ReadMem(4 bytes @ 0xE000ED30)  returns 0x01 (0001ms, 59505ms total)
T13F0 7474:289 JLINK_ReadReg(R15 (PC))  returns 0x00402EF4 (0000ms, 59505ms total)
T3E10 7474:296 JLINK_ReadReg(R15 (PC))  returns 0x00402EF4 (0000ms, 59505ms total)
T3E10 7474:296 JLINK_ReadReg(R13 (SP))  returns 0x2001C550 (0000ms, 59505ms total)
T3E10 7474:297 JLINK_ReadMemHW(0x00402EF4, 0x0004 Bytes, ...) -- CPU_ReadMem(4 bytes @ 0x00402EF4) - Data: 2D E9 F0 4F  returns 0x00 (0001ms, 59506ms total)
T3E10 7474:346 JLINK_WriteU32(0xE000EDFC, 0x01000000) -- CPU_WriteMem(4 bytes @ 0xE000EDFC)  returns 0x00 (0001ms, 59507ms total)
T3E10 7474:347 JLINK_ReadMem (0xE0001000, 0x0004 Bytes, ...) -- CPU_ReadMem(4 bytes @ 0xE0001000) - Data: 01 00 00 40  returns 0x00 (0001ms, 59508ms total)
T3E10 7474:348 JLINK_WriteU32(0xE0001000, 0x40000001)  returns 0x00 (0000ms, 59508ms total)
T3E10 7474:348 JLINK_WriteU32(0xE0001028, 0x00000100)  returns 0x00 (0000ms, 59508ms total)
T3E10 7474:348 JLINK_ReadMem (0xE0001028, 0x0004 Bytes, ...) -- CPU_WriteMem(4 bytes @ 0xE0001028) -- CPU_ReadMem(4 bytes @ 0xE0001028) - Data: 00 00 00 00  returns 0x00 (0002ms, 59510ms total)
T3E10 7474:350 JLINK_WriteU32(0xE0001024, 0x0000001F)  returns 0x00 (0000ms, 59510ms total)
T3E10 7474:350 JLINK_ReadMem (0xE0001024, 0x0004 Bytes, ...) -- CPU_WriteMem(4 bytes @ 0xE0001024) -- CPU_ReadMem(4 bytes @ 0xE0001024) - Data: 0F 00 00 00  returns 0x00 (0002ms, 59512ms total)
T3E10 7474:352 JLINK_WriteU32(0xE0001038, 0x00000100)  returns 0x00 (0000ms, 59512ms total)
T3E10 7474:352 JLINK_ReadMem (0xE0001038, 0x0004 Bytes, ...) -- CPU_WriteMem(4 bytes @ 0xE0001038) -- CPU_ReadMem(4 bytes @ 0xE0001038) - Data: 00 03 00 00  returns 0x00 (0002ms, 59514ms total)
T3E10 7474:354 JLINK_WriteU32(0xE0001034, 0x0000001F)  returns 0x00 (0000ms, 59514ms total)
T3E10 7474:354 JLINK_ReadMem (0xE0001034, 0x0004 Bytes, ...) -- CPU_WriteMem(4 bytes @ 0xE0001034) -- CPU_ReadMem(4 bytes @ 0xE0001034) - Data: 0F 00 00 00  returns 0x00 (0002ms, 59516ms total)
T3E10 7474:356 JLINK_WriteU32(0xE0001048, 0x00000100)  returns 0x00 (0000ms, 59516ms total)
T3E10 7474:356 JLINK_ReadMem (0xE0001048, 0x0004 Bytes, ...) -- CPU_WriteMem(4 bytes @ 0xE0001048) -- CPU_ReadMem(4 bytes @ 0xE0001048) - Data: 00 00 00 00  returns 0x00 (0002ms, 59518ms total)
T3E10 7474:358 JLINK_WriteU32(0xE0001044, 0x0000001F)  returns 0x00 (0000ms, 59518ms total)
T3E10 7474:358 JLINK_ReadMem (0xE0001044, 0x0004 Bytes, ...) -- CPU_WriteMem(4 bytes @ 0xE0001044) -- CPU_ReadMem(4 bytes @ 0xE0001044) - Data: 0F 00 00 00  returns 0x00 (0002ms, 59520ms total)
T3E10 7474:360 JLINK_WriteU32(0xE0001058, 0x00000100)  returns 0x00 (0000ms, 59520ms total)
T3E10 7474:360 JLINK_ReadMem (0xE0001058, 0x0004 Bytes, ...) -- CPU_WriteMem(4 bytes @ 0xE0001058) -- CPU_ReadMem(4 bytes @ 0xE0001058) - Data: 00 00 00 00  returns 0x00 (0002ms, 59522ms total)
T3E10 7474:362 JLINK_WriteU32(0xE0001054, 0x0000001F)  returns 0x00 (0000ms, 59522ms total)
T3E10 7474:362 JLINK_ReadMem (0xE0001054, 0x0004 Bytes, ...) -- CPU_WriteMem(4 bytes @ 0xE0001054) -- CPU_ReadMem(4 bytes @ 0xE0001054) - Data: 0F 00 00 00  returns 0x00 (0002ms, 59524ms total)
T3E10 7474:364 JLINK_WriteU32(0xE0001020, 0x00000000)  returns 0x00 (0000ms, 59524ms total)
T3E10 7474:364 JLINK_WriteU32(0xE0001024, 0x00000000)  returns 0x00 (0000ms, 59524ms total)
T3E10 7474:364 JLINK_WriteU32(0xE0001028, 0x00000000)  returns 0x00 (0000ms, 59524ms total)
T3E10 7474:364 JLINK_WriteU32(0xE0001030, 0x00000000)  returns 0x00 (0000ms, 59524ms total)
T3E10 7474:364 JLINK_WriteU32(0xE0001034, 0x00000000)  returns 0x00 (0000ms, 59524ms total)
T3E10 7474:364 JLINK_WriteU32(0xE0001038, 0x00000000)  returns 0x00 (0000ms, 59524ms total)
T3E10 7474:364 JLINK_WriteU32(0xE0001040, 0x00000000)  returns 0x00 (0000ms, 59524ms total)
T3E10 7474:364 JLINK_WriteU32(0xE0001044, 0x00000000)  returns 0x00 (0000ms, 59524ms total)
T3E10 7474:364 JLINK_WriteU32(0xE0001048, 0x00000000)  returns 0x00 (0000ms, 59524ms total)
T3E10 7474:364 JLINK_WriteU32(0xE0001050, 0x00000000)  returns 0x00 (0000ms, 59524ms total)
T3E10 7474:364 JLINK_WriteU32(0xE0001054, 0x00000000)  returns 0x00 (0000ms, 59524ms total)
T3E10 7474:364 JLINK_WriteU32(0xE0001058, 0x00000000)  returns 0x00 (0000ms, 59524ms total)
T3E10 7474:364 JLINK_GetBPInfo(BPHandle = 127)  returns 0x00 (0000ms, 59524ms total)
T3E10 7474:364 JLINK_ClrBPEx(BPHandle = 0x0000007F)  returns 0x00 (0000ms, 59524ms total)
T3E10 7474:364 JLINK_ReadReg(R15 (PC))  returns 0x00402EF4 (0000ms, 59524ms total)
T3E10 7474:365 JLINK_Go() -- CPU_WriteMem(4 bytes @ 0xE0002000) -- CPU_WriteMem(4 bytes @ 0xE0001000) -- CPU_ReadMem(4 bytes @ 0xE0001000) -- CPU_WriteMem(4 bytes @ 0xE000ED30) -- CPU_WriteMem(4 bytes @ 0xE0001020) -- CPU_WriteMem(4 bytes @ 0xE0001030) -- CPU_WriteMem(4 bytes @ 0xE0001040) -- CPU_WriteMem(4 bytes @ 0xE0001050) -- CPU_WriteMem(4 bytes @ 0xE0001024) -- CPU_WriteMem(4 bytes @ 0xE0001034) -- CPU_WriteMem(4 bytes @ 0xE0001044) -- CPU_WriteMem(4 bytes @ 0xE0001054)
 -- CPU_WriteMem(4 bytes @ 0xE0001028) -- CPU_WriteMem(4 bytes @ 0xE0001038) -- CPU_WriteMem(4 bytes @ 0xE0001048) -- CPU_WriteMem(4 bytes @ 0xE0001058) -- CPU_WriteMem(4 bytes @ 0xE000200C) (0008ms, 59532ms total)
T13F0 7474:373 JLINK_IsHalted()  returns FALSE (0001ms, 59533ms total)
T13F0 7474:415 JLINK_IsHalted()  returns TRUE (0004ms, 59536ms total)
T13F0 7474:419 JLINK_GetMOEs(...) -- CPU_ReadMem(4 bytes @ 0xE000ED30)  returns 0x01 (0002ms, 59534ms total)
T13F0 7474:421 JLINK_ReadReg(R15 (PC))  returns 0x00400682 (0000ms, 59534ms total)
T3E10 7474:425 JLINK_ReadReg(R15 (PC))  returns 0x00400682 (0000ms, 59534ms total)
T3E10 7474:425 JLINK_ReadReg(R13 (SP))  returns 0x2001C488 (0000ms, 59534ms total)
T3E10 7474:425 JLINK_ReadMemHW(0x00400682, 0x0004 Bytes, ...) -- CPU_ReadMem(4 bytes @ 0x00400682) - Data: 00 BF 2F 48  returns 0x00 (0001ms, 59535ms total)
T3E10 7474:427 JLINK_ReadReg(R0)  returns 0x00000001 (0000ms, 59535ms total)
T3E10 7474:427 JLINK_ReadReg(R1)  returns 0xE000E100 (0000ms, 59535ms total)
T3E10 7474:427 JLINK_ReadReg(R2)  returns 0x00080000 (0000ms, 59535ms total)
T3E10 7474:427 JLINK_ReadReg(R3)  returns 0x00000000 (0000ms, 59535ms total)
T3E10 7474:427 JLINK_ReadReg(R4)  returns 0x004012C1 (0000ms, 59535ms total)
T3E10 7474:427 JLINK_ReadReg(R5)  returns 0xF08EE6AF (0000ms, 59535ms total)
T3E10 7474:427 JLINK_ReadReg(R6)  returns 0x0000001B (0001ms, 59536ms total)
T3E10 7474:428 JLINK_ReadReg(R7)  returns 0x2001C488 (0000ms, 59536ms total)
T3E10 7474:428 JLINK_ReadReg(R8)  returns 0x76EAC800 (0000ms, 59536ms total)
T3E10 7474:428 JLINK_ReadReg(R9)  returns 0x00000003 (0000ms, 59536ms total)
T3E10 7474:428 JLINK_ReadReg(R10)  returns 0xE4E1C000 (0000ms, 59536ms total)
T3E10 7474:428 JLINK_ReadReg(R11)  returns 0x00000000 (0000ms, 59536ms total)
T3E10 7474:428 JLINK_ReadReg(R12)  returns 0x0000ACBB (0000ms, 59536ms total)
T3E10 7474:428 JLINK_ReadReg(R13 (SP))  returns 0x2001C488 (0000ms, 59536ms total)
T3E10 7474:428 JLINK_ReadReg(R14)  returns 0x00400683 (0000ms, 59536ms total)
T3E10 7474:428 JLINK_ReadReg(R15 (PC))  returns 0x00400682 (0000ms, 59536ms total)
T3E10 7474:428 JLINK_ReadReg(XPSR)  returns 0x01000000 (0000ms, 59536ms total)
T3E10 7474:428 JLINK_ReadReg(MSP)  returns 0x2001C488 (0000ms, 59536ms total)
T3E10 7474:428 JLINK_ReadReg(PSP)  returns 0xCC460208 (0000ms, 59536ms total)
T3E10 7474:428 JLINK_ReadReg(PRIMASK)  returns 0x00000000 (0000ms, 59536ms total)
T3E10 7474:428 JLINK_ReadReg(BASEPRI)  returns 0x00000000 (0000ms, 59536ms total)
T3E10 7474:428 JLINK_ReadReg(FAULTMASK)  returns 0x00000000 (0000ms, 59536ms total)
T3E10 7474:428 JLINK_ReadReg(CONTROL)  returns 0x00000000 (0000ms, 59536ms total)
T3E10 7474:444 JLINK_ReadMem (0x2001C480, 0x0040 Bytes, ...) -- CPU_ReadMem(64 bytes @ 0x2001C480) -- Updating C cache (64 bytes @ 0x2001C480) -- Read from C cache (64 bytes @ 0x2001C480) - Data: 88 C4 01 20 88 C4 01 20 49 00 00 00 00 0E 27 07 ...  returns 0x00 (0001ms, 59537ms total)
T3E10 7474:445 JLINK_ReadMemHW(0x00402F26, 0x0004 Bytes, ...) -- CPU_ReadMem(4 bytes @ 0x00402F26) - Data: 00 21 21 20  returns 0x00 (0001ms, 59538ms total)
T2CE4 7474:497 JLINK_ReadMem (0x40000000, 0x0118 Bytes, ...) -- CPU_ReadMem(280 bytes @ 0x40000000) - Data: 00 00 00 00 00 00 00 00 00 00 00 00 00 00 00 00 ...  returns 0x00 (0003ms, 59541ms total)
T2CE4 7474:502 JLINK_ReadMem (0x40000000, 0x0118 Bytes, ...) -- CPU_ReadMem(280 bytes @ 0x40000000) - Data: 00 00 00 00 00 00 00 00 00 00 00 00 00 00 00 00 ...  returns 0x00 (0003ms, 59544ms total)
T2CE4 7474:551 JLINK_ReadMem (0x40000118, 0x0064 Bytes, ...) -- CPU_ReadMem(100 bytes @ 0x40000118) - Data: 00 00 00 00 00 00 00 00 00 00 00 00 00 00 00 00 ...  returns 0x00 (0003ms, 59547ms total)
T2CE4 7474:562 JLINK_ReadMem (0x4000017C, 0x0085 Bytes, ...) -- CPU_ReadMem(133 bytes @ 0x4000017C) - Data: 00 00 00 00 00 00 00 00 00 00 00 00 00 00 00 00 ...  returns 0x00 (0003ms, 59550ms total)
T13F0 7474:621 JLINK_IsHalted()  returns TRUE (0000ms, 59550ms total)
T13F0 7474:823 JLINK_IsHalted()  returns TRUE (0000ms, 59550ms total)
T13F0 7475:023 JLINK_IsHalted()  returns TRUE (0001ms, 59551ms total)
T13F0 7475:224 JLINK_IsHalted()  returns TRUE (0000ms, 59550ms total)
T13F0 7475:424 JLINK_IsHalted()  returns TRUE (0000ms, 59550ms total)
T13F0 7475:624 JLINK_IsHalted()  returns TRUE (0001ms, 59551ms total)
T13F0 7475:826 JLINK_IsHalted()  returns TRUE (0000ms, 59550ms total)
T13F0 7476:030 JLINK_IsHalted()  returns TRUE (0000ms, 59550ms total)
T13F0 7476:230 JLINK_IsHalted()  returns TRUE (0001ms, 59551ms total)
T13F0 7476:432 JLINK_IsHalted()  returns TRUE (0000ms, 59550ms total)
T13F0 7476:635 JLINK_IsHalted()  returns TRUE (0000ms, 59550ms total)
T13F0 7476:836 JLINK_IsHalted()  returns TRUE (0001ms, 59551ms total)
T13F0 7477:037 JLINK_IsHalted()  returns TRUE (0000ms, 59550ms total)
T13F0 7477:239 JLINK_IsHalted()  returns TRUE (0000ms, 59550ms total)
T13F0 7477:440 JLINK_IsHalted()  returns TRUE (0001ms, 59551ms total)
T3E10 7477:596 JLINK_ReadReg(R15 (PC))  returns 0x00400682 (0000ms, 59550ms total)
T3E10 7477:597 JLINK_GetBPInfo(BPHandle = 126)  returns 0x00 (0000ms, 59550ms total)
T3E10 7477:597 JLINK_ClrBPEx(BPHandle = 0x0000007E)  returns 0x00 (0000ms, 59550ms total)
T3E10 7477:597 JLINK_Step() -- Read from flash cache (2 bytes @ 0x00400682) -- CPU_ReadMem(4 bytes @ 0xE000ED18) -- CPU_WriteMem(4 bytes @ 0xE000ED18) -- CPU_ReadMem(4 bytes @ 0xE000ED18) -- CPU_WriteMem(4 bytes @ 0xE000ED18) -- CPU_ReadMem(4 bytes @ 0xE0001004) -- Simulated  returns 0x00 (0003ms, 59553ms total)
T3E10 7477:600 JLINK_SetBPEx(Addr = 0x00400682, Type = 0xFFFFFFF2)  returns 0x00000080 (0000ms, 59553ms total)
T3E10 7477:600 JLINK_GetBPInfo(BPHandle = 128)  returns 0x00 (0000ms, 59553ms total)
T13F0 7477:600 JLINK_IsHalted()  returns TRUE (0000ms, 59553ms total)
T13F0 7477:600 JLINK_GetMOEs(...)  returns 0x01 (0000ms, 59553ms total)
T13F0 7477:600 JLINK_ReadReg(R15 (PC))  returns 0x00400684 (0000ms, 59553ms total)
T3E10 7477:610 JLINK_ReadReg(R15 (PC))  returns 0x00400684 (0000ms, 59553ms total)
T3E10 7477:610 JLINK_ReadReg(R13 (SP))  returns 0x2001C488 (0000ms, 59553ms total)
T3E10 7477:611 JLINK_ReadMemHW(0x00400684, 0x0004 Bytes, ...) -- CPU_ReadMem(4 bytes @ 0x00400684) - Data: 2F 48 35 4B  returns 0x00 (0001ms, 59554ms total)
T3E10 7477:612 JLINK_ReadReg(R0)  returns 0x00000001 (0000ms, 59554ms total)
T3E10 7477:612 JLINK_ReadReg(R1)  returns 0xE000E100 (0000ms, 59554ms total)
T3E10 7477:612 JLINK_ReadReg(R2)  returns 0x00080000 (0000ms, 59554ms total)
T3E10 7477:612 JLINK_ReadReg(R3)  returns 0x00000000 (0000ms, 59554ms total)
T3E10 7477:612 JLINK_ReadReg(R4)  returns 0x004012C1 (0000ms, 59554ms total)
T3E10 7477:612 JLINK_ReadReg(R5)  returns 0xF08EE6AF (0000ms, 59554ms total)
T3E10 7477:612 JLINK_ReadReg(R6)  returns 0x0000001B (0000ms, 59554ms total)
T3E10 7477:612 JLINK_ReadReg(R7)  returns 0x2001C488 (0000ms, 59554ms total)
T3E10 7477:612 JLINK_ReadReg(R8)  returns 0x76EAC800 (0000ms, 59554ms total)
T3E10 7477:612 JLINK_ReadReg(R9)  returns 0x00000003 (0000ms, 59554ms total)
T3E10 7477:612 JLINK_ReadReg(R10)  returns 0xE4E1C000 (0000ms, 59554ms total)
T3E10 7477:612 JLINK_ReadReg(R11)  returns 0x00000000 (0000ms, 59554ms total)
T3E10 7477:612 JLINK_ReadReg(R12)  returns 0x0000ACBB (0000ms, 59554ms total)
T3E10 7477:612 JLINK_ReadReg(R13 (SP))  returns 0x2001C488 (0001ms, 59555ms total)
T3E10 7477:613 JLINK_ReadReg(R14)  returns 0x00400683 (0000ms, 59555ms total)
T3E10 7477:613 JLINK_ReadReg(R15 (PC))  returns 0x00400684 (0000ms, 59555ms total)
T3E10 7477:613 JLINK_ReadReg(XPSR)  returns 0x01000000 (0000ms, 59555ms total)
T3E10 7477:613 JLINK_ReadReg(MSP)  returns 0x2001C488 (0000ms, 59555ms total)
T3E10 7477:613 JLINK_ReadReg(PSP)  returns 0xCC460208 (0000ms, 59555ms total)
T3E10 7477:613 JLINK_ReadReg(PRIMASK)  returns 0x00000000 (0000ms, 59555ms total)
T3E10 7477:613 JLINK_ReadReg(BASEPRI)  returns 0x00000000 (0000ms, 59555ms total)
T3E10 7477:613 JLINK_ReadReg(FAULTMASK)  returns 0x00000000 (0000ms, 59555ms total)
T3E10 7477:613 JLINK_ReadReg(CONTROL)  returns 0x00000000 (0000ms, 59555ms total)
T3E10 7477:613 JLINK_ReadReg(R15 (PC))  returns 0x00400684 (0000ms, 59555ms total)
T3E10 7477:613 JLINK_Step() -- Read from flash cache (2 bytes @ 0x00400684) -- Read from flash cache (4 bytes @ 0x00400744) -- Simulated  returns 0x00 (0001ms, 59556ms total)
T13F0 7477:614 JLINK_IsHalted()  returns TRUE (0000ms, 59556ms total)
T13F0 7477:614 JLINK_GetMOEs(...)  returns 0x01 (0000ms, 59556ms total)
T13F0 7477:614 JLINK_ReadReg(R15 (PC))  returns 0x00400686 (0000ms, 59556ms total)
T3E10 7477:624 JLINK_ReadReg(R15 (PC))  returns 0x00400686 (0000ms, 59556ms total)
T3E10 7477:624 JLINK_ReadReg(R13 (SP))  returns 0x2001C488 (0000ms, 59556ms total)
T3E10 7477:624 JLINK_ReadMemHW(0x00400686, 0x0004 Bytes, ...) -- CPU_ReadMem(4 bytes @ 0x00400686) - Data: 35 4B 98 47  returns 0x00 (0001ms, 59557ms total)
T3E10 7477:625 JLINK_ReadReg(R0)  returns 0x40018000 (0000ms, 59557ms total)
T3E10 7477:625 JLINK_ReadReg(R1)  returns 0xE000E100 (0000ms, 59557ms total)
T3E10 7477:625 JLINK_ReadReg(R2)  returns 0x00080000 (0000ms, 59557ms total)
T3E10 7477:625 JLINK_ReadReg(R3)  returns 0x00000000 (0000ms, 59557ms total)
T3E10 7477:625 JLINK_ReadReg(R4)  returns 0x004012C1 (0001ms, 59558ms total)
T3E10 7477:626 JLINK_ReadReg(R5)  returns 0xF08EE6AF (0000ms, 59558ms total)
T3E10 7477:626 JLINK_ReadReg(R6)  returns 0x0000001B (0000ms, 59558ms total)
T3E10 7477:626 JLINK_ReadReg(R7)  returns 0x2001C488 (0000ms, 59558ms total)
T3E10 7477:626 JLINK_ReadReg(R8)  returns 0x76EAC800 (0000ms, 59558ms total)
T3E10 7477:626 JLINK_ReadReg(R9)  returns 0x00000003 (0000ms, 59558ms total)
T3E10 7477:626 JLINK_ReadReg(R10)  returns 0xE4E1C000 (0000ms, 59558ms total)
T3E10 7477:626 JLINK_ReadReg(R11)  returns 0x00000000 (0000ms, 59558ms total)
T3E10 7477:626 JLINK_ReadReg(R12)  returns 0x0000ACBB (0000ms, 59558ms total)
T3E10 7477:626 JLINK_ReadReg(R13 (SP))  returns 0x2001C488 (0000ms, 59558ms total)
T3E10 7477:626 JLINK_ReadReg(R14)  returns 0x00400683 (0000ms, 59558ms total)
T3E10 7477:626 JLINK_ReadReg(R15 (PC))  returns 0x00400686 (0000ms, 59558ms total)
T3E10 7477:626 JLINK_ReadReg(XPSR)  returns 0x01000000 (0000ms, 59558ms total)
T3E10 7477:626 JLINK_ReadReg(MSP)  returns 0x2001C488 (0000ms, 59558ms total)
T3E10 7477:626 JLINK_ReadReg(PSP)  returns 0xCC460208 (0000ms, 59558ms total)
T3E10 7477:626 JLINK_ReadReg(PRIMASK)  returns 0x00000000 (0000ms, 59558ms total)
T3E10 7477:626 JLINK_ReadReg(BASEPRI)  returns 0x00000000 (0000ms, 59558ms total)
T3E10 7477:626 JLINK_ReadReg(FAULTMASK)  returns 0x00000000 (0000ms, 59558ms total)
T3E10 7477:626 JLINK_ReadReg(CONTROL)  returns 0x00000000 (0000ms, 59558ms total)
T3E10 7477:627 JLINK_ReadReg(R15 (PC))  returns 0x00400686 (0000ms, 59558ms total)
T3E10 7477:627 JLINK_Step() -- Read from flash cache (2 bytes @ 0x00400686) -- Read from flash cache (4 bytes @ 0x0040075C) -- Simulated  returns 0x00 (0000ms, 59558ms total)
T13F0 7477:627 JLINK_IsHalted()  returns TRUE (0000ms, 59558ms total)
T13F0 7477:627 JLINK_GetMOEs(...)  returns 0x01 (0000ms, 59558ms total)
T13F0 7477:627 JLINK_ReadReg(R15 (PC))  returns 0x00400688 (0000ms, 59558ms total)
T3E10 7477:638 JLINK_ReadReg(R15 (PC))  returns 0x00400688 (0000ms, 59558ms total)
T3E10 7477:638 JLINK_ReadReg(R13 (SP))  returns 0x2001C488 (0000ms, 59558ms total)
T3E10 7477:638 JLINK_ReadMemHW(0x00400688, 0x0004 Bytes, ...) -- CPU_ReadMem(4 bytes @ 0x00400688) - Data: 98 47 03 46  returns 0x00 (0001ms, 59559ms total)
T3E10 7477:639 JLINK_ReadReg(R0)  returns 0x40018000 (0000ms, 59559ms total)
T3E10 7477:639 JLINK_ReadReg(R1)  returns 0xE000E100 (0000ms, 59559ms total)
T3E10 7477:639 JLINK_ReadReg(R2)  returns 0x00080000 (0000ms, 59559ms total)
T3E10 7477:639 JLINK_ReadReg(R3)  returns 0x00400B6D (0000ms, 59559ms total)
T3E10 7477:639 JLINK_ReadReg(R4)  returns 0x004012C1 (0000ms, 59559ms total)
T3E10 7477:640 JLINK_ReadReg(R5)  returns 0xF08EE6AF (0000ms, 59560ms total)
T3E10 7477:640 JLINK_ReadReg(R6)  returns 0x0000001B (0000ms, 59560ms total)
T3E10 7477:640 JLINK_ReadReg(R7)  returns 0x2001C488 (0000ms, 59560ms total)
T3E10 7477:640 JLINK_ReadReg(R8)  returns 0x76EAC800 (0000ms, 59560ms total)
T3E10 7477:640 JLINK_ReadReg(R9)  returns 0x00000003 (0000ms, 59560ms total)
T3E10 7477:640 JLINK_ReadReg(R10)  returns 0xE4E1C000 (0000ms, 59560ms total)
T3E10 7477:640 JLINK_ReadReg(R11)  returns 0x00000000 (0000ms, 59560ms total)
T3E10 7477:640 JLINK_ReadReg(R12)  returns 0x0000ACBB (0000ms, 59560ms total)
T3E10 7477:640 JLINK_ReadReg(R13 (SP))  returns 0x2001C488 (0000ms, 59560ms total)
T3E10 7477:640 JLINK_ReadReg(R14)  returns 0x00400683 (0000ms, 59560ms total)
T3E10 7477:640 JLINK_ReadReg(R15 (PC))  returns 0x00400688 (0000ms, 59560ms total)
T3E10 7477:640 JLINK_ReadReg(XPSR)  returns 0x01000000 (0000ms, 59560ms total)
T3E10 7477:640 JLINK_ReadReg(MSP)  returns 0x2001C488 (0000ms, 59560ms total)
T3E10 7477:640 JLINK_ReadReg(PSP)  returns 0xCC460208 (0000ms, 59560ms total)
T3E10 7477:640 JLINK_ReadReg(PRIMASK)  returns 0x00000000 (0000ms, 59560ms total)
T3E10 7477:640 JLINK_ReadReg(BASEPRI)  returns 0x00000000 (0000ms, 59560ms total)
T3E10 7477:640 JLINK_ReadReg(FAULTMASK)  returns 0x00000000 (0000ms, 59560ms total)
T3E10 7477:640 JLINK_ReadReg(CONTROL)  returns 0x00000000 (0000ms, 59560ms total)
T3E10 7477:641 JLINK_ReadReg(R15 (PC))  returns 0x00400688 (0000ms, 59560ms total)
T3E10 7477:641 JLINK_Step() -- Read from flash cache (2 bytes @ 0x00400688) -- Simulated  returns 0x00 (0000ms, 59560ms total)
T13F0 7477:641 JLINK_IsHalted()  returns TRUE (0000ms, 59560ms total)
T13F0 7477:641 JLINK_GetMOEs(...)  returns 0x01 (0000ms, 59560ms total)
T13F0 7477:641 JLINK_ReadReg(R15 (PC))  returns 0x00400B6C (0000ms, 59560ms total)
T3E10 7477:652 JLINK_ReadReg(R15 (PC))  returns 0x00400B6C (0000ms, 59560ms total)
T3E10 7477:652 JLINK_ReadReg(R13 (SP))  returns 0x2001C488 (0000ms, 59560ms total)
T3E10 7477:677 JLINK_ReadMemHW(0x00400B6C, 0x0004 Bytes, ...) -- CPU_ReadMem(4 bytes @ 0x00400B6C) - Data: 80 B5 8A B0  returns 0x00 (0001ms, 59561ms total)
T3E10 7477:679 JLINK_ReadReg(R0)  returns 0x40018000 (0000ms, 59561ms total)
T3E10 7477:679 JLINK_ReadReg(R1)  returns 0xE000E100 (0000ms, 59561ms total)
T3E10 7477:679 JLINK_ReadReg(R2)  returns 0x00080000 (0000ms, 59561ms total)
T3E10 7477:679 JLINK_ReadReg(R3)  returns 0x00400B6D (0000ms, 59561ms total)
T3E10 7477:679 JLINK_ReadReg(R4)  returns 0x004012C1 (0000ms, 59561ms total)
T3E10 7477:679 JLINK_ReadReg(R5)  returns 0xF08EE6AF (0000ms, 59561ms total)
T3E10 7477:679 JLINK_ReadReg(R6)  returns 0x0000001B (0000ms, 59561ms total)
T3E10 7477:679 JLINK_ReadReg(R7)  returns 0x2001C488 (0000ms, 59561ms total)
T3E10 7477:679 JLINK_ReadReg(R8)  returns 0x76EAC800 (0000ms, 59561ms total)
T3E10 7477:679 JLINK_ReadReg(R9)  returns 0x00000003 (0000ms, 59561ms total)
T3E10 7477:679 JLINK_ReadReg(R10)  returns 0xE4E1C000 (0000ms, 59561ms total)
T3E10 7477:679 JLINK_ReadReg(R11)  returns 0x00000000 (0000ms, 59561ms total)
T3E10 7477:679 JLINK_ReadReg(R12)  returns 0x0000ACBB (0000ms, 59561ms total)
T3E10 7477:679 JLINK_ReadReg(R13 (SP))  returns 0x2001C488 (0000ms, 59561ms total)
T3E10 7477:679 JLINK_ReadReg(R14)  returns 0x0040068B (0000ms, 59561ms total)
T3E10 7477:679 JLINK_ReadReg(R15 (PC))  returns 0x00400B6C (0000ms, 59561ms total)
T3E10 7477:679 JLINK_ReadReg(XPSR)  returns 0x01000000 (0000ms, 59561ms total)
T3E10 7477:679 JLINK_ReadReg(MSP)  returns 0x2001C488 (0000ms, 59561ms total)
T3E10 7477:679 JLINK_ReadReg(PSP)  returns 0xCC460208 (0000ms, 59561ms total)
T3E10 7477:679 JLINK_ReadReg(PRIMASK)  returns 0x00000000 (0001ms, 59562ms total)
T3E10 7477:680 JLINK_ReadReg(BASEPRI)  returns 0x00000000 (0000ms, 59562ms total)
T3E10 7477:680 JLINK_ReadReg(FAULTMASK)  returns 0x00000000 (0000ms, 59562ms total)
T3E10 7477:680 JLINK_ReadReg(CONTROL)  returns 0x00000000 (0000ms, 59562ms total)
T3E10 7477:680 JLINK_ReadMemHW(0x0040068A, 0x0004 Bytes, ...) -- CPU_ReadMem(4 bytes @ 0x0040068A) - Data: 03 46 01 2B  returns 0x00 (0001ms, 59563ms total)
T3E10 7477:681 JLINK_ReadMemHW(0x0040068A, 0x0002 Bytes, ...) -- CPU_ReadMem(2 bytes @ 0x0040068A) - Data: 03 46  returns 0x00 (0002ms, 59565ms total)
T3E10 7477:683 JLINK_ReadReg(R15 (PC))  returns 0x00400B6C (0000ms, 59565ms total)
T3E10 7477:683 JLINK_SetBPEx(Addr = 0x0040068A, Type = 0xFFFFFFF2)  returns 0x00000081 (0000ms, 59565ms total)
T3E10 7477:684 JLINK_GetBPInfo(BPHandle = 129)  returns 0x00 (0000ms, 59565ms total)
T3E10 7477:684 JLINK_Go() -- CPU_WriteMem(4 bytes @ 0xE0002000) -- CPU_WriteMem(4 bytes @ 0xE0002000) -- CPU_ReadMem(4 bytes @ 0xE0001000) -- CPU_WriteMem(4 bytes @ 0xE000ED30) -- CPU_WriteMem(4 bytes @ 0xE000200C) -- CPU_WriteMem(4 bytes @ 0xE0001004) (0008ms, 59573ms total)
T13F0 7477:693 JLINK_IsHalted()  returns FALSE (0002ms, 59575ms total)
T13F0 7477:716 JLINK_IsHalted()  returns FALSE (0000ms, 59573ms total)
T13F0 7477:796 JLINK_IsHalted()  returns FALSE (0001ms, 59574ms total)
T13F0 7477:998 JLINK_IsHalted()  returns FALSE (0000ms, 59573ms total)
T13F0 7478:199 JLINK_IsHalted()  returns FALSE (0001ms, 59574ms total)
T13F0 7478:401 JLINK_IsHalted()  returns FALSE (0001ms, 59574ms total)
T13F0 7478:604 JLINK_IsHalted()  returns FALSE (0000ms, 59573ms total)
T13F0 7478:805 JLINK_IsHalted()  returns FALSE (0000ms, 59573ms total)
T13F0 7479:005 JLINK_IsHalted()  returns FALSE (0001ms, 59574ms total)
T13F0 7479:207 JLINK_IsHalted()  returns FALSE (0001ms, 59574ms total)
T13F0 7479:411 JLINK_IsHalted()  returns FALSE (0001ms, 59574ms total)
T13F0 7479:613 JLINK_IsHalted()  returns FALSE (0001ms, 59574ms total)
T13F0 7479:814 JLINK_IsHalted()  returns FALSE (0001ms, 59574ms total)
T13F0 7480:017 JLINK_IsHalted()  returns FALSE (0000ms, 59573ms total)
T13F0 7480:218 JLINK_IsHalted()  returns FALSE (0001ms, 59574ms total)
T13F0 7480:422 JLINK_IsHalted()  returns FALSE (0000ms, 59573ms total)
T13F0 7480:622 JLINK_IsHalted()  returns FALSE (0001ms, 59574ms total)
T13F0 7480:824 JLINK_IsHalted()  returns FALSE (0000ms, 59573ms total)
T13F0 7481:025 JLINK_IsHalted()  returns FALSE (0000ms, 59573ms total)
T13F0 7481:227 JLINK_IsHalted()  returns FALSE (0001ms, 59574ms total)
T13F0 7481:429 JLINK_IsHalted()  returns FALSE (0000ms, 59573ms total)
T13F0 7481:629 JLINK_IsHalted()  returns FALSE (0000ms, 59573ms total)
T13F0 7481:830 JLINK_IsHalted()  returns FALSE (0000ms, 59573ms total)
T13F0 7482:030 JLINK_IsHalted()  returns FALSE (0001ms, 59574ms total)
T13F0 7482:232 JLINK_IsHalted()  returns FALSE (0001ms, 59574ms total)
T13F0 7482:434 JLINK_IsHalted()  returns FALSE (0001ms, 59574ms total)
T13F0 7482:637 JLINK_IsHalted()  returns FALSE (0001ms, 59574ms total)
T13F0 7482:840 JLINK_IsHalted()  returns FALSE (0000ms, 59573ms total)
T13F0 7483:040 JLINK_IsHalted()  returns FALSE (0001ms, 59574ms total)
T13F0 7483:245 JLINK_IsHalted()  returns FALSE (0001ms, 59574ms total)
T13F0 7483:447 JLINK_IsHalted()  returns FALSE (0000ms, 59573ms total)
T13F0 7483:648 JLINK_IsHalted()  returns FALSE (0000ms, 59573ms total)
T13F0 7483:850 JLINK_IsHalted()  returns FALSE (0000ms, 59573ms total)
T13F0 7484:051 JLINK_IsHalted()  returns FALSE (0001ms, 59574ms total)
T13F0 7484:252 JLINK_IsHalted()  returns FALSE (0001ms, 59574ms total)
T13F0 7484:456 JLINK_IsHalted()  returns FALSE (0001ms, 59574ms total)
T13F0 7484:658 JLINK_IsHalted()  returns FALSE (0000ms, 59573ms total)
T13F0 7484:859 JLINK_IsHalted()  returns FALSE (0001ms, 59574ms total)
T13F0 7485:061 JLINK_IsHalted()  returns FALSE (0001ms, 59574ms total)
T13F0 7485:263 JLINK_IsHalted()  returns FALSE (0001ms, 59574ms total)
T13F0 7485:467 JLINK_IsHalted()  returns FALSE (0000ms, 59573ms total)
T13F0 7485:670 JLINK_IsHalted()  returns FALSE (0000ms, 59573ms total)
T13F0 7485:870 JLINK_IsHalted()  returns FALSE (0002ms, 59575ms total)
T13F0 7486:073 JLINK_IsHalted()  returns FALSE (0001ms, 59574ms total)
T13F0 7486:276 JLINK_IsHalted()  returns FALSE (0000ms, 59573ms total)
T13F0 7486:477 JLINK_IsHalted()  returns FALSE (0001ms, 59574ms total)
T13F0 7486:679 JLINK_IsHalted()  returns FALSE (0000ms, 59573ms total)
